time	V(N004,Load)	V(Ubatt,Load)	V(load)	V(n011)	Id(M4)
0.000000000000000e+00	7.408857e-03	1.461707e+01	-6.170730e-01	-7.292134e-01	-6.359612e-01
2.742342603001546e-10	7.406831e-03	1.461946e+01	-6.194589e-01	-7.275588e-01	-6.667814e-01
8.227027739615700e-10	7.407904e-03	1.462395e+01	-6.239471e-01	-7.241718e-01	-7.292813e-01
1.919639808223295e-09	7.412910e-03	1.463205e+01	-6.320511e-01	-7.171865e-01	-8.573236e-01
4.043897709749000e-09	7.421136e-03	1.464570e+01	-6.457044e-01	-7.033005e-01	-1.112910e+00
6.738676470996463e-09	7.430136e-03	1.466100e+01	-6.609963e-01	-6.854355e-01	-1.444508e+00
7.133856630425761e-09	7.431328e-03	1.466295e+01	-6.629547e-01	-6.828112e-01	-1.494131e+00
7.660763509664825e-09	7.432699e-03	1.466544e+01	-6.654394e-01	-6.793238e-01	-1.560689e+00
8.714577268142953e-09	7.435381e-03	1.467020e+01	-6.701985e-01	-6.723922e-01	-1.694455e+00
1.000000000167534e-08	7.438421e-03	1.467578e+01	-6.757823e-01	-6.639917e-01	-1.858345e+00
1.001782296006226e-08	7.438540e-03	1.467586e+01	-6.758556e-01	-6.638768e-01	-1.860592e+00
1.005346887683611e-08	7.438660e-03	1.467600e+01	-6.760025e-01	-6.636490e-01	-1.865133e+00
1.012476071038382e-08	7.438779e-03	1.467630e+01	-6.762962e-01	-6.632000e-01	-1.874262e+00
1.020024092274197e-08	7.438898e-03	1.467661e+01	-6.766061e-01	-6.627339e-01	-1.883934e+00
1.029977116095981e-08	7.439137e-03	1.467701e+01	-6.770131e-01	-6.621314e-01	-1.896691e+00
1.040810492652922e-08	7.439375e-03	1.467745e+01	-6.774539e-01	-6.614860e-01	-1.910583e+00
1.053576746679052e-08	7.439673e-03	1.467797e+01	-6.779705e-01	-6.607347e-01	-1.926961e+00
1.067575772922824e-08	7.439971e-03	1.467853e+01	-6.785330e-01	-6.599193e-01	-1.944931e+00
1.088056540005100e-08	7.440388e-03	1.467935e+01	-6.793487e-01	-6.587384e-01	-1.971240e+00
1.116764009045923e-08	7.440984e-03	1.468048e+01	-6.804795e-01	-6.571023e-01	-2.008149e+00
1.149566570407545e-08	7.441640e-03	1.468175e+01	-6.817542e-01	-6.552585e-01	-2.050368e+00
1.187291898824272e-08	7.442415e-03	1.468320e+01	-6.831970e-01	-6.531735e-01	-2.098980e+00
1.232000949175083e-08	7.443368e-03	1.468488e+01	-6.848757e-01	-6.507537e-01	-2.156665e+00
1.287346064471340e-08	7.444441e-03	1.468691e+01	-6.869090e-01	-6.478407e-01	-2.228175e+00
1.356031457955265e-08	7.445693e-03	1.468937e+01	-6.893688e-01	-6.443688e-01	-2.317059e+00
1.439602689834452e-08	7.447183e-03	1.469228e+01	-6.922763e-01	-6.404013e-01	-2.425379e+00
1.529138057843049e-08	7.448792e-03	1.469530e+01	-6.952981e-01	-6.365485e-01	-2.541602e+00
1.612065667067064e-08	7.450104e-03	1.469801e+01	-6.980119e-01	-6.334780e-01	-2.649387e+00
1.700924531777837e-08	7.451475e-03	1.470083e+01	-7.008311e-01	-6.308149e-01	-2.765009e+00
1.803946333978068e-08	7.453084e-03	1.470401e+01	-7.040067e-01	-6.284330e-01	-2.899173e+00
1.883337325675472e-08	7.454216e-03	1.470638e+01	-7.063815e-01	-6.271642e-01	-3.002632e+00
2.000000000335067e-08	7.455885e-03	1.470979e+01	-7.097926e-01	-6.259215e-01	-3.154726e+00
2.002983358340149e-08	7.455945e-03	1.470988e+01	-7.098778e-01	-6.259044e-01	-3.158616e+00
2.008950074350313e-08	7.456064e-03	1.471005e+01	-7.100480e-01	-6.258678e-01	-3.166398e+00
2.020883505676752e-08	7.456243e-03	1.471039e+01	-7.103874e-01	-6.257852e-01	-3.181961e+00
2.034378370624479e-08	7.456422e-03	1.471077e+01	-7.107700e-01	-6.256784e-01	-3.199561e+00
2.046700626340270e-08	7.456541e-03	1.471112e+01	-7.111180e-01	-6.255686e-01	-3.215632e+00
2.059680053595470e-08	7.456720e-03	1.471148e+01	-7.114833e-01	-6.254416e-01	-3.232561e+00
2.073780454997509e-08	7.456899e-03	1.471188e+01	-7.118785e-01	-6.252928e-01	-3.250953e+00
2.089399851745721e-08	7.457137e-03	1.471231e+01	-7.123145e-01	-6.251160e-01	-3.271326e+00
2.107494974368240e-08	7.457376e-03	1.471282e+01	-7.128173e-01	-6.248966e-01	-3.294929e+00
2.128082594865521e-08	7.457674e-03	1.471339e+01	-7.133861e-01	-6.246281e-01	-3.321784e+00
2.153771141294447e-08	7.457912e-03	1.471409e+01	-7.140911e-01	-6.242648e-01	-3.355293e+00
2.185263302256768e-08	7.458389e-03	1.471495e+01	-7.149485e-01	-6.237742e-01	-3.396373e+00
2.229011544091497e-08	7.458866e-03	1.471613e+01	-7.161268e-01	-6.230041e-01	-3.453438e+00
2.290275450539392e-08	7.459641e-03	1.471775e+01	-7.177513e-01	-6.217229e-01	-3.533345e+00
2.396289094930282e-08	7.460892e-03	1.472049e+01	-7.204896e-01	-6.187744e-01	-3.671579e+00
2.608316383712062e-08	7.463276e-03	1.472576e+01	-7.257592e-01	-6.100227e-01	-3.947843e+00
2.884309176914845e-08	7.466137e-03	1.473229e+01	-7.322889e-01	-5.919042e-01	-4.306928e+00
3.184935862265981e-08	7.468939e-03	1.473901e+01	-7.390100e-01	-5.598304e-01	-4.697142e+00
3.497220217585362e-08	7.471621e-03	1.474556e+01	-7.455571e-01	-5.048929e-01	-5.100986e+00
3.979106436013957e-08	7.475317e-03	1.475501e+01	-7.550088e-01	-3.754423e-01	-5.721081e+00
4.436458654610842e-08	7.478476e-03	1.476338e+01	-7.633803e-01	-1.987341e-01	-6.305656e+00
5.003740853604111e-08	7.481992e-03	1.477305e+01	-7.730479e-01	9.580766e-02	-7.024509e+00
5.596009763214616e-08	7.485271e-03	1.478254e+01	-7.825369e-01	4.732412e-01	-7.768116e+00
6.039219243442195e-08	7.487476e-03	1.478924e+01	-7.892416e-01	8.030614e-01	-8.318623e+00
6.665290722129846e-08	7.490516e-03	1.479827e+01	-7.982652e-01	1.322195e+00	-9.087877e+00
7.139134686195980e-08	7.492661e-03	1.480481e+01	-8.048080e-01	1.747267e+00	-9.663320e+00
7.800555936604558e-08	7.495582e-03	1.481356e+01	-8.135618e-01	2.378722e+00	-1.045615e+01
8.428997181481046e-08	7.498145e-03	1.482151e+01	-8.215077e-01	3.004480e+00	-1.119889e+01
9.214438902171995e-08	7.497251e-03	1.482584e+01	-8.258427e-01	3.813134e+00	-1.213196e+01
9.770632598132822e-08	7.483661e-03	1.481197e+01	-8.119700e-01	4.407822e+00	-1.284109e+01
1.033678449224862e-07	7.454991e-03	1.477770e+01	-7.777010e-01	5.030455e+00	-1.361794e+01
1.106228161018574e-07	7.415116e-03	1.472862e+01	-7.286153e-01	5.821997e+00	-1.461062e+01
1.175831708527530e-07	7.382154e-03	1.468823e+01	-6.882328e-01	6.558208e+00	-1.552097e+01
1.248710248050178e-07	7.350683e-03	1.465018e+01	-6.501750e-01	7.302226e+00	-1.643976e+01
1.318496645752454e-07	7.318318e-03	1.461109e+01	-6.110927e-01	7.993962e+00	-1.731224e+01
1.349241168582815e-07	7.296920e-03	1.458480e+01	-5.848019e-01	8.294441e+00	-1.772176e+01
1.365716924689453e-07	7.257998e-03	1.453727e+01	-5.372742e-01	8.465410e+00	-1.806727e+01
1.373579687283244e-07	7.152528e-03	1.440715e+01	-4.071548e-01	8.583612e+00	-1.883498e+01
1.375482226451119e-07	7.101059e-03	1.434719e+01	-3.471880e-01	8.627472e+00	-1.886117e+01
1.377338363986458e-07	7.088631e-03	1.433738e+01	-3.373844e-01	8.658146e+00	-1.876695e+01
1.377780704664433e-07	7.090181e-03	1.433790e+01	-3.378997e-01	8.659238e+00	-1.887946e+01
1.378143221417161e-07	7.085800e-03	1.433173e+01	-3.317346e-01	8.661478e+00	-1.883245e+01
1.378418008832205e-07	7.083893e-03	1.433003e+01	-3.300322e-01	8.664792e+00	-1.880605e+01
1.378716207728337e-07	7.083386e-03	1.432957e+01	-3.295703e-01	8.667953e+00	-1.884313e+01
1.379046229918468e-07	7.082820e-03	1.432905e+01	-3.290517e-01	8.671277e+00	-1.882353e+01
1.379416695451718e-07	7.082611e-03	1.432888e+01	-3.288801e-01	8.674779e+00	-1.884346e+01
1.379975288554047e-07	7.082343e-03	1.432859e+01	-3.285860e-01	8.679921e+00	-1.883718e+01
1.380709950746239e-07	7.082254e-03	1.432836e+01	-3.283556e-01	8.686596e+00	-1.885167e+01
1.381946454492855e-07	7.082343e-03	1.432794e+01	-3.279438e-01	8.697778e+00	-1.886071e+01
1.383828763662498e-07	7.083088e-03	1.432736e+01	-3.273605e-01	8.714775e+00	-1.888395e+01
1.387041706144010e-07	7.085323e-03	1.432636e+01	-3.263624e-01	8.743734e+00	-1.891775e+01
1.392403363234540e-07	7.090002e-03	1.432475e+01	-3.247520e-01	8.791917e+00	-1.897748e+01
1.401427864103355e-07	7.095933e-03	1.432215e+01	-3.221538e-01	8.872583e+00	-1.907538e+01
1.416952953511852e-07	7.098198e-03	1.431801e+01	-3.180061e-01	9.010070e+00	-1.924333e+01
1.443249860039186e-07	7.092476e-03	1.431178e+01	-3.117752e-01	9.239212e+00	-1.952265e+01
1.487466073715749e-07	7.081777e-03	1.430319e+01	-3.031878e-01	9.613443e+00	-1.998121e+01
1.567817751665923e-07	7.069051e-03	1.429172e+01	-2.917249e-01	1.026063e+01	-2.078537e+01
1.687767456556855e-07	7.055700e-03	1.428058e+01	-2.805789e-01	1.115838e+01	-2.193586e+01
1.814372857789071e-07	7.045716e-03	1.427407e+01	-2.740724e-01	1.201235e+01	-2.309375e+01
1.951074840855771e-07	7.038355e-03	1.427100e+01	-2.709958e-01	1.282925e+01	-2.429012e+01
2.025889584075791e-07	7.035524e-03	1.427063e+01	-2.706293e-01	1.322343e+01	-2.492218e+01
2.073066568131221e-07	7.034272e-03	1.427092e+01	-2.709171e-01	1.344305e+01	-2.531044e+01
2.099904844662936e-07	7.033736e-03	1.427126e+01	-2.712647e-01	1.355340e+01	-2.552787e+01
2.129149739640845e-07	7.033288e-03	1.427182e+01	-2.718171e-01	1.365812e+01	-2.576181e+01
2.161033329228790e-07	7.032990e-03	1.427261e+01	-2.726083e-01	1.375569e+01	-2.601388e+01
2.194598776386614e-07	7.032871e-03	1.427369e+01	-2.736880e-01	1.383560e+01	-2.627580e+01
2.236597167817878e-07	7.033080e-03	1.427541e+01	-2.754102e-01	1.390151e+01	-2.659863e+01
2.279447188641148e-07	7.033646e-03	1.427755e+01	-2.775452e-01	1.393988e+01	-2.692311e+01
2.312116822236754e-07	7.034302e-03	1.427942e+01	-2.794172e-01	1.395600e+01	-2.716687e+01
2.349389486913656e-07	7.035226e-03	1.428175e+01	-2.817458e-01	1.396703e+01	-2.744112e+01
2.389109247311061e-07	7.036388e-03	1.428435e+01	-2.843494e-01	1.397473e+01	-2.772956e+01
2.427787587286345e-07	7.037610e-03	1.428696e+01	-2.869588e-01	1.397960e+01	-2.800658e+01
2.474790572540297e-07	7.039219e-03	1.429017e+01	-2.901745e-01	1.398340e+01	-2.833831e+01
2.522614120092914e-07	7.040918e-03	1.429346e+01	-2.934566e-01	1.398583e+01	-2.867062e+01
2.577330956779478e-07	7.043034e-03	1.429719e+01	-2.971934e-01	1.398740e+01	-2.904411e+01
2.641018029547748e-07	7.045537e-03	1.430149e+01	-3.014923e-01	1.398824e+01	-2.947029e+01
2.713410952870365e-07	7.048577e-03	1.430629e+01	-3.062884e-01	1.398836e+01	-2.994307e+01
2.810673404990416e-07	7.052898e-03	1.431257e+01	-3.125702e-01	1.398767e+01	-3.056003e+01
2.919408056134554e-07	7.058054e-03	1.431933e+01	-3.193330e-01	1.398621e+01	-3.122245e+01
3.104495839775789e-07	7.067740e-03	1.433027e+01	-3.302669e-01	1.398297e+01	-3.229139e+01
3.309889008429323e-07	7.079810e-03	1.434153e+01	-3.415304e-01	1.397906e+01	-3.339112e+01
3.623670138050428e-07	7.101625e-03	1.435694e+01	-3.569413e-01	1.397320e+01	-3.489444e+01
4.043728659142154e-07	7.138640e-03	1.437421e+01	-3.742075e-01	1.396630e+01	-3.657758e+01
4.754152366573394e-07	7.218242e-03	1.439750e+01	-3.974994e-01	1.395659e+01	-3.884673e+01
5.092838778961162e-07	7.265955e-03	1.440600e+01	-4.059967e-01	1.395291e+01	-3.967405e+01
5.361798782604899e-07	7.312506e-03	1.441084e+01	-4.108356e-01	1.395070e+01	-4.014484e+01
5.719992116209882e-07	7.386476e-03	1.441532e+01	-4.153220e-01	1.394851e+01	-4.058096e+01
6.148811931561138e-07	7.495046e-03	1.441848e+01	-4.184831e-01	1.394674e+01	-4.088771e+01
6.636883320282339e-07	7.653564e-03	1.442003e+01	-4.200267e-01	1.394554e+01	-4.103676e+01
7.191855057667174e-07	7.892489e-03	1.442051e+01	-4.205090e-01	1.394477e+01	-4.108247e+01
7.734439483875200e-07	8.217275e-03	1.442058e+01	-4.205782e-01	1.394430e+01	-4.108825e+01
8.369134239724629e-07	8.764595e-03	1.442057e+01	-4.205720e-01	1.394392e+01	-4.108683e+01
8.953678256803932e-07	9.528995e-03	1.442056e+01	-4.205573e-01	1.394368e+01	-4.108486e+01
9.525688005329602e-07	1.078412e-02	1.442054e+01	-4.205407e-01	1.394351e+01	-4.108287e+01
1.015407420111580e-06	1.340565e-02	1.442052e+01	-4.205212e-01	1.394338e+01	-4.108068e+01
1.070777512594823e-06	2.068707e-02	1.442050e+01	-4.205033e-01	1.394331e+01	-4.107875e+01
1.133491672716813e-06	8.361372e-02	1.442048e+01	-4.204838e-01	1.394324e+01	-4.107671e+01
1.158887225315153e-06	2.938270e-01	1.442048e+01	-4.204796e-01	1.394322e+01	-4.107622e+01
1.166935952395809e-06	5.070424e-01	1.442048e+01	-4.204816e-01	1.394322e+01	-4.107644e+01
1.172459092244060e-06	6.859535e-01	1.442048e+01	-4.204835e-01	1.394321e+01	-4.107658e+01
1.176335987666810e-06	7.765635e-01	1.442048e+01	-4.204842e-01	1.394321e+01	-4.107667e+01
1.180059425613667e-06	8.430234e-01	1.442048e+01	-4.204844e-01	1.394321e+01	-4.107671e+01
1.185158532999997e-06	9.114437e-01	1.442048e+01	-4.204841e-01	1.394320e+01	-4.107664e+01
1.190351891847130e-06	9.601846e-01	1.442048e+01	-4.204834e-01	1.394320e+01	-4.107658e+01
1.196597334642002e-06	9.984419e-01	1.442048e+01	-4.204820e-01	1.394320e+01	-4.107641e+01
1.203589884424261e-06	1.025162e+00	1.442048e+01	-4.204800e-01	1.394319e+01	-4.107623e+01
1.211372321105464e-06	1.042248e+00	1.442048e+01	-4.204776e-01	1.394319e+01	-4.107597e+01
1.220164802501200e-06	1.052510e+00	1.442047e+01	-4.204747e-01	1.394319e+01	-4.107569e+01
1.229784475142992e-06	1.058014e+00	1.442047e+01	-4.204713e-01	1.394318e+01	-4.107534e+01
1.240327359611215e-06	1.060686e+00	1.442047e+01	-4.204676e-01	1.394318e+01	-4.107497e+01
1.251733913347486e-06	1.061804e+00	1.442046e+01	-4.204635e-01	1.394318e+01	-4.107456e+01
1.263855664047908e-06	1.062141e+00	1.442046e+01	-4.204591e-01	1.394317e+01	-4.107412e+01
1.276802359902185e-06	1.062123e+00	1.442045e+01	-4.204544e-01	1.394317e+01	-4.107364e+01
1.291220642546387e-06	1.061943e+00	1.442045e+01	-4.204491e-01	1.394316e+01	-4.107313e+01
1.307565197478100e-06	1.061674e+00	1.442044e+01	-4.204431e-01	1.394316e+01	-4.107253e+01
1.326746441411564e-06	1.061336e+00	1.442044e+01	-4.204361e-01	1.394316e+01	-4.107183e+01
1.350085793515310e-06	1.060917e+00	1.442043e+01	-4.204274e-01	1.394315e+01	-4.107096e+01
1.380229817854461e-06	1.060376e+00	1.442042e+01	-4.204162e-01	1.394315e+01	-4.106987e+01
1.420305198167326e-06	1.059656e+00	1.442040e+01	-4.204012e-01	1.394315e+01	-4.106838e+01
1.480754191637845e-06	1.058573e+00	1.442038e+01	-4.203785e-01	1.394315e+01	-4.106615e+01
1.569707968725187e-06	1.056985e+00	1.442034e+01	-4.203448e-01	1.394315e+01	-4.106284e+01
1.747615522892931e-06	1.053826e+00	1.442028e+01	-4.202764e-01	1.394316e+01	-4.105615e+01
2.008446809156905e-06	1.049229e+00	1.442017e+01	-4.201744e-01	1.394319e+01	-4.104618e+01
2.530109381684853e-06	1.040111e+00	1.441997e+01	-4.199655e-01	1.394325e+01	-4.102579e+01
3.473120275737651e-06	1.023836e+00	1.441958e+01	-4.195775e-01	1.394336e+01	-4.098792e+01
4.943488889477821e-06	9.996107e-01	1.441896e+01	-4.189572e-01	1.394354e+01	-4.092737e+01
6.272102964083315e-06	9.802855e-01	1.441839e+01	-4.183860e-01	1.394371e+01	-4.087162e+01
7.886321739918045e-06	9.611869e-01	1.441768e+01	-4.176839e-01	1.394392e+01	-4.080308e+01
9.840516923910470e-06	9.436054e-01	1.441683e+01	-4.168291e-01	1.394417e+01	-4.071965e+01
1.205542467302284e-05	9.292107e-01	1.441586e+01	-4.158584e-01	1.394445e+01	-4.062489e+01
1.519335874700101e-05	9.149390e-01	1.441448e+01	-4.144840e-01	1.394486e+01	-4.049073e+01
1.912338707724115e-05	9.023529e-01	1.441277e+01	-4.127677e-01	1.394536e+01	-4.032320e+01
2.475486259122944e-05	8.897133e-01	1.441032e+01	-4.103215e-01	1.394608e+01	-4.008442e+01
3.379830237732612e-05	8.755627e-01	1.440643e+01	-4.064284e-01	1.394722e+01	-3.970440e+01
4.968063456457783e-05	8.585225e-01	1.439970e+01	-3.997021e-01	1.394920e+01	-3.904780e+01
8.144529893908820e-05	8.345835e-01	1.438659e+01	-3.865865e-01	1.395305e+01	-3.776744e+01
1.214452989390866e-04	8.114286e-01	1.437062e+01	-3.706155e-01	1.395774e+01	-3.620827e+01
1.614452989390849e-04	7.919977e-01	1.435527e+01	-3.552715e-01	1.396225e+01	-3.471022e+01
2.014452989390833e-04	7.745681e-01	1.434056e+01	-3.405632e-01	1.396657e+01	-3.327415e+01
2.414452989390817e-04	7.584886e-01	1.432646e+01	-3.264642e-01	1.397071e+01	-3.189750e+01
2.814452989390800e-04	7.434166e-01	1.431295e+01	-3.129493e-01	1.397468e+01	-3.057780e+01
3.614452989390768e-04	7.155223e-01	1.428758e+01	-2.875757e-01	1.398213e+01	-2.809995e+01
4.014452989390752e-04	7.025003e-01	1.427567e+01	-2.756715e-01	1.398562e+01	-2.693738e+01
4.414452989390735e-04	6.899532e-01	1.426420e+01	-2.641977e-01	1.398899e+01	-2.581679e+01
4.600000000000021e-04	6.842749e-01	1.425902e+01	-2.590176e-01	1.399051e+01	-2.531085e+01
4.628905978781434e-04	6.834105e-01	1.425822e+01	-2.582249e-01	1.399075e+01	-2.523343e+01
4.686717936344259e-04	6.816999e-01	1.425666e+01	-2.566558e-01	1.399121e+01	-2.508018e+01
4.802341851469910e-04	6.786158e-01	1.425353e+01	-2.535345e-01	1.399212e+01	-2.477534e+01
4.802441851469927e-04	6.785342e-01	1.425353e+01	-2.535318e-01	1.399212e+01	-2.477506e+01
4.802641851469960e-04	6.783496e-01	1.425353e+01	-2.535263e-01	1.399213e+01	-2.477451e+01
4.802953757459399e-04	6.783035e-01	1.425352e+01	-2.535180e-01	1.399213e+01	-2.477370e+01
4.803237755138315e-04	6.782882e-01	1.425351e+01	-2.535104e-01	1.399213e+01	-2.477295e+01
4.803743894009616e-04	6.782629e-01	1.425350e+01	-2.534968e-01	1.399214e+01	-2.477163e+01
4.804474750177146e-04	6.782309e-01	1.425348e+01	-2.534772e-01	1.399214e+01	-2.476972e+01
4.805657076235939e-04	6.781884e-01	1.425345e+01	-2.534456e-01	1.399215e+01	-2.476663e+01
4.808018769361655e-04	6.781133e-01	1.425338e+01	-2.533824e-01	1.399217e+01	-2.476045e+01
4.812742155613087e-04	6.779730e-01	1.425326e+01	-2.532559e-01	1.399221e+01	-2.474810e+01
4.822188928115950e-04	6.776959e-01	1.425300e+01	-2.530033e-01	1.399228e+01	-2.472343e+01
4.841082473121608e-04	6.771432e-01	1.425250e+01	-2.524991e-01	1.399243e+01	-2.467418e+01
4.878869563132993e-04	6.760405e-01	1.425149e+01	-2.514936e-01	1.399272e+01	-2.457598e+01
4.924425819977304e-04	6.747108e-01	1.425028e+01	-2.502846e-01	1.399308e+01	-2.445786e+01
4.924525819977321e-04	6.747095e-01	1.425028e+01	-2.502820e-01	1.399308e+01	-2.445762e+01
4.924725819977355e-04	6.747062e-01	1.425028e+01	-2.502768e-01	1.399308e+01	-2.445713e+01
4.925049413742819e-04	6.746964e-01	1.425027e+01	-2.502682e-01	1.399308e+01	-2.445629e+01
4.925348100652746e-04	6.746882e-01	1.425026e+01	-2.502604e-01	1.399308e+01	-2.445552e+01
4.925896905336874e-04	6.746719e-01	1.425025e+01	-2.502458e-01	1.399309e+01	-2.445409e+01
4.926719176310199e-04	6.746483e-01	1.425022e+01	-2.502241e-01	1.399310e+01	-2.445197e+01
4.928102180070670e-04	6.746081e-01	1.425019e+01	-2.501875e-01	1.399311e+01	-2.444840e+01
4.930868187591614e-04	6.745280e-01	1.425011e+01	-2.501144e-01	1.399313e+01	-2.444126e+01
4.936400202633501e-04	6.743677e-01	1.424997e+01	-2.499683e-01	1.399317e+01	-2.442699e+01
4.947464232717275e-04	6.740475e-01	1.424968e+01	-2.496763e-01	1.399326e+01	-2.439847e+01
4.969592292884892e-04	6.734090e-01	1.424909e+01	-2.490931e-01	1.399343e+01	-2.434154e+01
4.969692292884909e-04	6.734054e-01	1.424909e+01	-2.490905e-01	1.399343e+01	-2.434126e+01
4.969892292884942e-04	6.733985e-01	1.424909e+01	-2.490851e-01	1.399343e+01	-2.434072e+01
4.970226793233404e-04	6.733891e-01	1.424908e+01	-2.490763e-01	1.399343e+01	-2.433987e+01
4.970539387502693e-04	6.733801e-01	1.424907e+01	-2.490681e-01	1.399343e+01	-2.433906e+01
4.971129730464291e-04	6.733633e-01	1.424905e+01	-2.490526e-01	1.399344e+01	-2.433755e+01
4.972044310172438e-04	6.733368e-01	1.424903e+01	-2.490285e-01	1.399345e+01	-2.433520e+01
4.973637577582596e-04	6.732909e-01	1.424899e+01	-2.489866e-01	1.399346e+01	-2.433110e+01
4.976824112402981e-04	6.731990e-01	1.424890e+01	-2.489028e-01	1.399348e+01	-2.432292e+01
4.983197182043750e-04	6.730152e-01	1.424874e+01	-2.487352e-01	1.399353e+01	-2.430655e+01
4.987253860718466e-04	6.728982e-01	1.424863e+01	-2.486286e-01	1.399356e+01	-2.429614e+01
4.991886642650573e-04	6.727640e-01	1.424851e+01	-2.485068e-01	1.399360e+01	-2.428422e+01
4.991986642650589e-04	6.727614e-01	1.424850e+01	-2.485042e-01	1.399360e+01	-2.428398e+01
4.992186642650623e-04	6.727561e-01	1.424850e+01	-2.484991e-01	1.399360e+01	-2.428349e+01
4.992531584943199e-04	6.727460e-01	1.424849e+01	-2.484900e-01	1.399360e+01	-2.428260e+01
4.992857671739306e-04	6.727368e-01	1.424848e+01	-2.484814e-01	1.399361e+01	-2.428177e+01
4.993489338005058e-04	6.727185e-01	1.424846e+01	-2.484648e-01	1.399361e+01	-2.428014e+01
4.994498859012333e-04	6.726895e-01	1.424844e+01	-2.484383e-01	1.399362e+01	-2.427756e+01
4.996315821523406e-04	6.726381e-01	1.424839e+01	-2.483909e-01	1.399363e+01	-2.427297e+01
4.996366074977859e-04	6.726362e-01	1.424839e+01	-2.483894e-01	1.399363e+01	-2.427280e+01
