time	V(N004,Load)	V(N005,Load)	V(Ubatt,Load)	V(load)	V(n011)	Id(M4)
0.000000000000000e+00	7.397354e-03	6.051900e+00	1.461688e+01	-6.168792e-01	-7.292728e-01	-6.338959e-01
2.156198830594036e-10	7.402599e-03	6.051286e+00	1.461877e+01	-6.187664e-01	-7.279758e-01	-6.577256e-01
6.468596491782108e-10	7.406950e-03	6.050043e+00	1.462238e+01	-6.223767e-01	-7.253348e-01	-7.063680e-01
1.338389780947136e-09	7.410288e-03	6.048007e+00	1.462776e+01	-6.277578e-01	-7.209915e-01	-7.860451e-01
2.721450044484985e-09	7.416129e-03	6.043808e+00	1.463731e+01	-6.373078e-01	-7.120563e-01	-9.500024e-01
5.487570564621791e-09	7.426202e-03	6.035174e+00	1.465411e+01	-6.541150e-01	-6.938276e-01	-1.286404e+00
6.616172366913364e-09	7.429719e-03	6.031573e+00	1.466020e+01	-6.602003e-01	-6.863363e-01	-1.426394e+00
7.742796397092189e-09	7.432759e-03	6.027908e+00	1.466559e+01	-6.655884e-01	-6.788867e-01	-1.568445e+00
9.996044457449837e-09	7.438421e-03	6.020510e+00	1.467567e+01	-6.756689e-01	-6.640980e-01	-1.854776e+00
1.000000000167534e-08	7.438481e-03	6.020498e+00	1.467569e+01	-6.756856e-01	-6.640722e-01	-1.855265e+00
1.000791109012633e-08	7.438481e-03	6.020471e+00	1.467572e+01	-6.757182e-01	-6.640210e-01	-1.856269e+00
1.002373326702832e-08	7.438540e-03	6.020418e+00	1.467578e+01	-6.757835e-01	-6.639190e-01	-1.858284e+00
1.005537762083231e-08	7.438600e-03	6.020314e+00	1.467591e+01	-6.759142e-01	-6.637167e-01	-1.862332e+00
1.011866632844027e-08	7.438719e-03	6.020104e+00	1.467618e+01	-6.761752e-01	-6.633181e-01	-1.870437e+00
1.019494135640064e-08	7.438838e-03	6.019851e+00	1.467649e+01	-6.764888e-01	-6.628469e-01	-1.880209e+00
1.029971271465646e-08	7.439137e-03	6.019503e+00	1.467692e+01	-6.769178e-01	-6.622121e-01	-1.893637e+00
1.040601985830003e-08	7.439375e-03	6.019150e+00	1.467735e+01	-6.773509e-01	-6.615785e-01	-1.907267e+00
1.053484530166848e-08	7.439613e-03	6.018721e+00	1.467787e+01	-6.778727e-01	-6.608202e-01	-1.923793e+00
1.067117716413435e-08	7.439911e-03	6.018268e+00	1.467842e+01	-6.784212e-01	-6.600258e-01	-1.941291e+00
1.087807569716270e-08	7.440329e-03	6.017578e+00	1.467925e+01	-6.792462e-01	-6.588327e-01	-1.967867e+00
1.116392620709172e-08	7.440925e-03	6.016625e+00	1.468037e+01	-6.803735e-01	-6.572030e-01	-2.004615e+00
1.149229611474567e-08	7.441700e-03	6.015528e+00	1.468165e+01	-6.816512e-01	-6.553566e-01	-2.046874e+00
1.186800700769819e-08	7.442474e-03	6.014271e+00	1.468309e+01	-6.830897e-01	-6.532794e-01	-2.095283e+00
1.231480262903206e-08	7.443368e-03	6.012773e+00	1.468477e+01	-6.847693e-01	-6.508600e-01	-2.152925e+00
1.286632173025382e-08	7.444441e-03	6.010920e+00	1.468680e+01	-6.867980e-01	-6.479555e-01	-2.224180e+00
1.355224316101911e-08	7.445693e-03	6.008609e+00	1.468926e+01	-6.892574e-01	-6.444855e-01	-2.312937e+00
1.438603389192217e-08	7.447183e-03	6.005792e+00	1.469216e+01	-6.921617e-01	-6.405227e-01	-2.421001e+00
1.528207142775795e-08	7.448733e-03	6.002756e+00	1.469519e+01	-6.951894e-01	-6.366607e-01	-2.537305e+00
1.611181790761584e-08	7.450104e-03	5.999937e+00	1.469791e+01	-6.979076e-01	-6.335825e-01	-2.645147e+00
1.700739386129024e-08	7.451475e-03	5.996887e+00	1.470075e+01	-7.007517e-01	-6.308936e-01	-2.761675e+00
1.803838545200165e-08	7.453084e-03	5.993367e+00	1.470393e+01	-7.039322e-01	-6.285068e-01	-2.895936e+00
1.883813035424842e-08	7.454216e-03	5.990630e+00	1.470633e+01	-7.063261e-01	-6.272279e-01	-3.000154e+00
2.000000000335067e-08	7.455885e-03	5.986647e+00	1.470973e+01	-7.097255e-01	-6.259893e-01	-3.151626e+00
2.002993147731669e-08	7.455945e-03	5.986544e+00	1.470981e+01	-7.098110e-01	-6.259722e-01	-3.155529e+00
2.008979443218761e-08	7.456005e-03	5.986339e+00	1.470998e+01	-7.099819e-01	-6.259353e-01	-3.163335e+00
2.020952034192947e-08	7.456183e-03	5.985927e+00	1.471032e+01	-7.103226e-01	-6.258522e-01	-3.178949e+00
2.034468494366282e-08	7.456362e-03	5.985463e+00	1.471071e+01	-7.107060e-01	-6.257446e-01	-3.196578e+00
2.048152389355629e-08	7.456541e-03	5.984993e+00	1.471109e+01	-7.110927e-01	-6.256219e-01	-3.214425e+00
2.060483210442055e-08	7.456720e-03	5.984569e+00	1.471144e+01	-7.114398e-01	-6.255004e-01	-3.230508e+00
2.075180904198559e-08	7.456958e-03	5.984064e+00	1.471185e+01	-7.118520e-01	-6.253443e-01	-3.249678e+00
2.090284834110889e-08	7.457137e-03	5.983544e+00	1.471227e+01	-7.122737e-01	-6.251723e-01	-3.269379e+00
2.109298598285125e-08	7.457376e-03	5.982890e+00	1.471280e+01	-7.128021e-01	-6.249403e-01	-3.294180e+00
2.129524842575670e-08	7.457614e-03	5.982194e+00	1.471336e+01	-7.133610e-01	-6.246746e-01	-3.320564e+00
2.156433843297778e-08	7.457972e-03	5.981267e+00	1.471410e+01	-7.140996e-01	-6.242911e-01	-3.355664e+00
2.187734635117344e-08	7.458389e-03	5.980189e+00	1.471495e+01	-7.149516e-01	-6.237987e-01	-3.396494e+00
2.233810532381586e-08	7.458985e-03	5.978601e+00	1.471619e+01	-7.161921e-01	-6.229779e-01	-3.456596e+00
2.295846056321604e-08	7.459700e-03	5.976460e+00	1.471784e+01	-7.178352e-01	-6.216550e-01	-3.537508e+00
2.409861638713595e-08	7.461011e-03	5.972519e+00	1.472077e+01	-7.207723e-01	-6.183696e-01	-3.686170e+00
2.637892802803687e-08	7.463574e-03	5.964621e+00	1.472642e+01	-7.264174e-01	-6.085355e-01	-3.983258e+00
2.914000268861017e-08	7.466435e-03	5.955033e+00	1.473292e+01	-7.329188e-01	-5.895482e-01	-4.342431e+00
3.210434262185258e-08	7.469237e-03	5.944715e+00	1.473951e+01	-7.395130e-01	-5.565912e-01	-4.727112e+00
3.521477581064358e-08	7.471800e-03	5.933863e+00	1.474601e+01	-7.460051e-01	-5.001240e-01	-5.129236e+00
4.006594200162139e-08	7.475495e-03	5.916905e+00	1.475548e+01	-7.554816e-01	-3.665446e-01	-5.753273e+00
4.467757001164196e-08	7.478714e-03	5.900760e+00	1.476387e+01	-7.638696e-01	-1.825950e-01	-6.342266e+00
5.118907814988249e-08	7.482648e-03	5.877943e+00	1.477487e+01	-7.748707e-01	1.666405e-01	-7.166354e+00
5.717159084345225e-08	7.485926e-03	5.856976e+00	1.478436e+01	-7.843592e-01	5.595660e-01	-7.916108e+00
6.163505419237714e-08	7.488191e-03	5.841340e+00	1.479103e+01	-7.910333e-01	9.011834e-01	-8.469132e+00
6.810973105647600e-08	7.491231e-03	5.818679e+00	1.480026e+01	-8.002570e-01	1.450663e+00	-9.262281e+00
7.332499598472486e-08	7.493615e-03	5.800450e+00	1.480737e+01	-8.073712e-01	1.927666e+00	-9.893326e+00
8.019367900291563e-08	7.496536e-03	5.776484e+00	1.481634e+01	-8.163398e-01	2.593897e+00	-1.071286e+01
8.709856774702374e-08	7.498205e-03	5.752293e+00	1.482352e+01	-8.235194e-01	3.290801e+00	-1.152920e+01
9.557762056799923e-08	7.489324e-03	5.721220e+00	1.481784e+01	-8.178400e-01	4.178550e+00	-1.256550e+01
1.010358457453897e-07	7.467866e-03	5.699151e+00	1.479320e+01	-7.932010e-01	4.772007e+00	-1.329211e+01
1.078095712633842e-07	7.430017e-03	5.670278e+00	1.474701e+01	-7.470106e-01	5.516202e+00	-1.422751e+01
1.150710842584557e-07	7.393539e-03	5.639913e+00	1.470208e+01	-7.020757e-01	6.294391e+00	-1.519445e+01
1.219388994638804e-07	7.363260e-03	5.611902e+00	1.466534e+01	-6.653373e-01	7.005221e+00	-1.607046e+01
1.292439995304040e-07	7.331073e-03	5.582248e+00	1.462650e+01	-6.264991e-01	7.737035e+00	-1.698298e+01
1.341290312012466e-07	7.303059e-03	5.561635e+00	1.459231e+01	-5.923068e-01	8.215971e+00	-1.761094e+01
1.362544165620094e-07	7.267892e-03	5.549785e+00	1.454922e+01	-5.492194e-01	8.430774e+00	-1.798384e+01
1.373118937511575e-07	7.156342e-03	5.531954e+00	1.441201e+01	-4.120086e-01	8.577405e+00	-1.876842e+01
1.375704844208681e-07	7.101536e-03	5.524412e+00	1.434817e+01	-3.481682e-01	8.629351e+00	-1.882768e+01
1.378226257911508e-07	7.092118e-03	5.522794e+00	1.434089e+01	-3.408920e-01	8.662662e+00	-1.882705e+01
1.378885765221383e-07	7.090956e-03	5.522250e+00	1.433772e+01	-3.377195e-01	8.665522e+00	-1.892160e+01
1.379306744861419e-07	7.084221e-03	5.521241e+00	1.432967e+01	-3.296653e-01	8.670572e+00	-1.881735e+01
1.379597839509805e-07	7.082880e-03	5.521056e+00	1.432888e+01	-3.288757e-01	8.674855e+00	-1.880541e+01
1.379920864311157e-07	7.082880e-03	5.520946e+00	1.432883e+01	-3.288306e-01	8.678251e+00	-1.884719e+01
1.380229886077666e-07	7.082641e-03	5.520804e+00	1.432852e+01	-3.285187e-01	8.681298e+00	-1.882905e+01
1.380582072066372e-07	7.082701e-03	5.520681e+00	1.432847e+01	-3.284746e-01	8.684559e+00	-1.885440e+01
1.381052468080179e-07	7.082582e-03	5.520491e+00	1.432823e+01	-3.282334e-01	8.688862e+00	-1.884514e+01
1.381664655533688e-07	7.082701e-03	5.520264e+00	1.432806e+01	-3.280626e-01	8.694413e+00	-1.886064e+01
1.382615287398581e-07	7.082939e-03	5.519899e+00	1.432774e+01	-3.277363e-01	8.703008e+00	-1.886503e+01
1.384055402717244e-07	7.083654e-03	5.519356e+00	1.432730e+01	-3.272958e-01	8.716013e+00	-1.888442e+01
1.386395576397081e-07	7.085294e-03	5.518469e+00	1.432656e+01	-3.265629e-01	8.737115e+00	-1.890800e+01
1.390241338231069e-07	7.088840e-03	5.517018e+00	1.432540e+01	-3.253977e-01	8.771721e+00	-1.895156e+01
1.396595188732364e-07	7.094204e-03	5.514626e+00	1.432352e+01	-3.235235e-01	8.828683e+00	-1.902032e+01
1.407298874309126e-07	7.098705e-03	5.510616e+00	1.432053e+01	-3.205313e-01	8.924035e+00	-1.913708e+01
1.425202207847032e-07	7.097304e-03	5.503956e+00	1.431593e+01	-3.159286e-01	9.081799e+00	-1.932913e+01
1.455165368410838e-07	7.089049e-03	5.492930e+00	1.430921e+01	-3.092140e-01	9.340897e+00	-1.964554e+01
1.506502068232551e-07	7.078052e-03	5.474324e+00	1.429997e+01	-2.999710e-01	9.770505e+00	-2.017303e+01
1.592658508339784e-07	7.065952e-03	5.443678e+00	1.428879e+01	-2.887945e-01	1.045393e+01	-2.102695e+01
1.712996259908839e-07	7.053405e-03	5.401699e+00	1.427886e+01	-2.788630e-01	1.133657e+01	-2.216924e+01
1.841881861613937e-07	7.044017e-03	5.357559e+00	1.427322e+01	-2.732174e-01	1.218304e+01	-2.333572e+01
1.981377112242333e-07	7.037193e-03	5.310483e+00	1.427082e+01	-2.708184e-01	1.298919e+01	-2.454441e+01
2.052470119556782e-07	7.034808e-03	5.286741e+00	1.427076e+01	-2.707610e-01	1.334794e+01	-2.513932e+01
2.093024019655942e-07	7.033855e-03	5.273298e+00	1.427116e+01	-2.711637e-01	1.352464e+01	-2.547025e+01
2.122837439791359e-07	7.033378e-03	5.263460e+00	1.427167e+01	-2.716696e-01	1.363654e+01	-2.570963e+01
2.152656793721897e-07	7.033050e-03	5.253659e+00	1.427236e+01	-2.723644e-01	1.373177e+01	-2.594607e+01
2.186564880823916e-07	7.032871e-03	5.242558e+00	1.427338e+01	-2.733844e-01	1.381917e+01	-2.621163e+01
2.223148568084032e-07	7.032990e-03	5.230639e+00	1.427480e+01	-2.747998e-01	1.388417e+01	-2.649390e+01
2.271437441678237e-07	7.033497e-03	5.214985e+00	1.427710e+01	-2.771046e-01	1.393409e+01	-2.686094e+01
2.304742273348537e-07	7.034123e-03	5.204240e+00	1.427896e+01	-2.789598e-01	1.395309e+01	-2.711032e+01
2.342916380279614e-07	7.035047e-03	5.191975e+00	1.428131e+01	-2.813128e-01	1.396548e+01	-2.739197e+01
2.380729594991804e-07	7.036120e-03	5.179865e+00	1.428377e+01	-2.837732e-01	1.397341e+01	-2.766726e+01
2.421918747497198e-07	7.037401e-03	5.166710e+00	1.428654e+01	-2.865394e-01	1.397912e+01	-2.796329e+01
2.452825006160619e-07	7.038414e-03	5.156865e+00	1.428865e+01	-2.886485e-01	1.398200e+01	-2.818256e+01
2.497170037904506e-07	7.040024e-03	5.142771e+00	1.429169e+01	-2.916944e-01	1.398475e+01	-2.849314e+01
2.536988461254719e-07	7.041484e-03	5.130146e+00	1.429443e+01	-2.944261e-01	1.398638e+01	-2.876811e+01
2.589974621713953e-07	7.043511e-03	5.113391e+00	1.429804e+01	-2.980379e-01	1.398764e+01	-2.912814e+01
2.648514613526332e-07	7.045865e-03	5.094932e+00	1.430198e+01	-3.019808e-01	1.398829e+01	-2.951856e+01
2.718827124756351e-07	7.048815e-03	5.072841e+00	1.430663e+01	-3.066308e-01	1.398834e+01	-2.997677e+01
2.812452108771901e-07	7.052958e-03	5.043546e+00	1.431267e+01	-3.126726e-01	1.398765e+01	-3.057006e+01
2.916334187128000e-07	7.057905e-03	5.011225e+00	1.431914e+01	-3.191372e-01	1.398625e+01	-3.120330e+01
3.095022627283561e-07	7.067174e-03	4.956024e+00	1.432973e+01	-3.297302e-01	1.398315e+01	-3.223896e+01
3.281692166900996e-07	7.078081e-03	4.898937e+00	1.434002e+01	-3.400214e-01	1.397960e+01	-3.324384e+01
3.608997852372342e-07	7.100493e-03	4.800217e+00	1.435625e+01	-3.562540e-01	1.397345e+01	-3.482737e+01
4.000504374088165e-07	7.134467e-03	4.684586e+00	1.437257e+01	-3.725701e-01	1.396696e+01	-3.641800e+01
4.722374647297967e-07	7.215530e-03	4.476626e+00	1.439625e+01	-3.962477e-01	1.395710e+01	-3.872475e+01
5.185038068761250e-07	7.282495e-03	4.346709e+00	1.440750e+01	-4.074987e-01	1.395220e+01	-3.982012e+01
5.533530882187443e-07	7.346094e-03	4.251301e+00	1.441323e+01	-4.132311e-01	1.394954e+01	-4.037774e+01
5.878184716062718e-07	7.423967e-03	4.159077e+00	1.441674e+01	-4.167421e-01	1.394774e+01	-4.071883e+01
6.395543901277501e-07	7.578313e-03	4.024541e+00	1.441924e+01	-4.192374e-01	1.394613e+01	-4.096049e+01
7.198140328512626e-07	7.919461e-03	3.823326e+00	1.442040e+01	-4.204025e-01	1.394482e+01	-4.107212e+01
7.982355776786632e-07	8.445203e-03	3.635499e+00	1.442057e+01	-4.205725e-01	1.394414e+01	-4.108735e+01
8.815858928215570e-07	9.428740e-03	3.445966e+00	1.442056e+01	-4.205592e-01	1.394373e+01	-4.108515e+01
9.664332728809288e-07	1.174217e-02	3.263382e+00	1.442053e+01	-4.205348e-01	1.394347e+01	-4.108221e+01
1.064457925914475e-06	2.275425e-02	3.063953e+00	1.442050e+01	-4.205039e-01	1.394330e+01	-4.107881e+01
1.138728826857727e-06	1.627190e-01	2.921349e+00	1.442048e+01	-4.204823e-01	1.394322e+01	-4.107652e+01
1.164575208399687e-06	4.442320e-01	2.875937e+00	1.442048e+01	-4.204796e-01	1.394320e+01	-4.107616e+01
1.172050537734393e-06	6.354745e-01	2.864452e+00	1.442048e+01	-4.204813e-01	1.394320e+01	-4.107640e+01
1.175687574579698e-06	7.363358e-01	2.859460e+00	1.442048e+01	-4.204822e-01	1.394319e+01	-4.107645e+01
1.179695908716527e-06	8.169006e-01	2.854232e+00	1.442048e+01	-4.204826e-01	1.394319e+01	-4.107647e+01
1.183560069138723e-06	8.757971e-01	2.849356e+00	1.442048e+01	-4.204826e-01	1.394319e+01	-4.107650e+01
1.189688186964410e-06	9.423024e-01	2.841852e+00	1.442048e+01	-4.204818e-01	1.394318e+01	-4.107637e+01
1.196327256945684e-06	9.892835e-01	2.833930e+00	1.442048e+01	-4.204805e-01	1.394318e+01	-4.107626e+01
1.204967033978377e-06	1.024435e+00	2.823845e+00	1.442048e+01	-4.204782e-01	1.394318e+01	-4.107600e+01
1.214224313254852e-06	1.043797e+00	2.813225e+00	1.442048e+01	-4.204753e-01	1.394317e+01	-4.107573e+01
1.227781285327578e-06	1.055970e+00	2.797889e+00	1.442047e+01	-4.204707e-01	1.394317e+01	-4.107525e+01
1.242038067797435e-06	1.060492e+00	2.781970e+00	1.442047e+01	-4.204656e-01	1.394316e+01	-4.107475e+01
1.266327694163238e-06	1.062012e+00	2.755225e+00	1.442046e+01	-4.204568e-01	1.394316e+01	-4.107386e+01
1.293587617537395e-06	1.061922e+00	2.725782e+00	1.442045e+01	-4.204469e-01	1.394315e+01	-4.107288e+01
1.348107464285708e-06	1.060956e+00	2.668841e+00	1.442043e+01	-4.204267e-01	1.394314e+01	-4.107087e+01
1.457147157775396e-06	1.058999e+00	2.561867e+00	1.442039e+01	-4.203859e-01	1.394314e+01	-4.106685e+01
1.675226544761710e-06	1.055110e+00	2.370181e+00	1.442030e+01	-4.203027e-01	1.394314e+01	-4.105869e+01
2.022243639786259e-06	1.048976e+00	2.116841e+00	1.442017e+01	-4.201672e-01	1.394318e+01	-4.104546e+01
2.615970355231145e-06	1.038573e+00	1.800232e+00	1.441993e+01	-4.199290e-01	1.394324e+01	-4.102220e+01
3.736650303599875e-06	1.019316e+00	1.424571e+00	1.441947e+01	-4.194663e-01	1.394338e+01	-4.097703e+01
5.086684178569334e-06	9.975215e-01	1.180041e+00	1.441889e+01	-4.188949e-01	1.394355e+01	-4.092126e+01
6.504690607471442e-06	9.773759e-01	1.060778e+00	1.441828e+01	-4.182839e-01	1.394373e+01	-4.086162e+01
8.104747433367032e-06	9.589226e-01	9.995201e-01	1.441759e+01	-4.175872e-01	1.394393e+01	-4.079362e+01
1.008095765937800e-05	9.418482e-01	9.626610e-01	1.441672e+01	-4.167225e-01	1.394419e+01	-4.070921e+01
1.258452904141782e-05	9.263833e-01	9.378148e-01	1.441563e+01	-4.156251e-01	1.394451e+01	-4.060210e+01
1.550572453577759e-05	9.136933e-01	9.209281e-01	1.441435e+01	-4.143461e-01	1.394489e+01	-4.047724e+01
1.989009150065585e-05	9.003590e-01	9.050102e-01	1.441243e+01	-4.124325e-01	1.394545e+01	-4.029045e+01
2.568507519670055e-05	8.879410e-01	8.911003e-01	1.440992e+01	-4.099177e-01	1.394619e+01	-4.004497e+01
3.548754086413891e-05	8.734417e-01	8.755775e-01	1.440571e+01	-4.057060e-01	1.394742e+01	-3.963384e+01
5.363702088870270e-05	8.550422e-01	8.564557e-01	1.439805e+01	-3.980498e-01	1.394967e+01	-3.888647e+01
8.993598093783028e-05	8.288537e-01	8.297774e-01	1.438315e+01	-3.831506e-01	1.395405e+01	-3.743199e+01
1.299359809378287e-04	8.064922e-01	8.072075e-01	1.436730e+01	-3.673027e-01	1.395870e+01	-3.588482e+01
1.699359809378270e-04	7.877603e-01	7.883869e-01	1.435210e+01	-3.520959e-01	1.396317e+01	-3.440015e+01
2.099359809378254e-04	7.708409e-01	7.714184e-01	1.433752e+01	-3.375192e-01	1.396745e+01	-3.297691e+01
2.499359809378238e-04	7.550889e-01	7.556290e-01	1.432355e+01	-3.235463e-01	1.397155e+01	-3.161255e+01
2.899359809378221e-04	7.402450e-01	7.407559e-01	1.431015e+01	-3.101522e-01	1.397549e+01	-3.030465e+01
3.699359809378189e-04	7.126745e-01	7.131399e-01	1.428501e+01	-2.850055e-01	1.398287e+01	-2.784894e+01
4.099359809378172e-04	6.997809e-01	7.002269e-01	1.427321e+01	-2.732079e-01	1.398633e+01	-2.669675e+01
4.499359809378156e-04	6.873222e-01	6.877510e-01	1.426181e+01	-2.618117e-01	1.398968e+01	-2.558373e+01
4.600000000000021e-04	6.842758e-01	6.846999e-01	1.425903e+01	-2.590271e-01	1.399050e+01	-2.531176e+01
4.801280381243750e-04	6.782006e-01	6.787097e-01	1.425356e+01	-2.535614e-01	1.399210e+01	-2.477790e+01
4.801380381243767e-04	6.782162e-01	6.787066e-01	1.425356e+01	-2.535588e-01	1.399210e+01	-2.477766e+01
4.801580381243800e-04	6.782522e-01	6.787003e-01	1.425355e+01	-2.535535e-01	1.399210e+01	-2.477716e+01
4.801980381243798e-04	6.782530e-01	6.786880e-01	1.425354e+01	-2.535428e-01	1.399211e+01	-2.477610e+01
4.802780381243793e-04	6.782373e-01	6.786639e-01	1.425352e+01	-2.535214e-01	1.399211e+01	-2.477401e+01
4.804380381243784e-04	6.781966e-01	6.786163e-01	1.425348e+01	-2.534785e-01	1.399213e+01	-2.476982e+01
4.807580381243765e-04	6.781065e-01	6.785220e-01	1.425339e+01	-2.533928e-01	1.399215e+01	-2.476146e+01
4.813980381243796e-04	6.779195e-01	6.783341e-01	1.425322e+01	-2.532216e-01	1.399220e+01	-2.474473e+01
4.826780381243789e-04	6.775447e-01	6.779587e-01	1.425288e+01	-2.528795e-01	1.399230e+01	-2.471132e+01
4.852380381243776e-04	6.767967e-01	6.772097e-01	1.425220e+01	-2.521970e-01	1.399250e+01	-2.464466e+01
4.903580381243750e-04	6.753019e-01	6.757151e-01	1.425084e+01	-2.508353e-01	1.399290e+01	-2.451162e+01
4.903680381243766e-04	6.752999e-01	6.757122e-01	1.425083e+01	-2.508326e-01	1.399290e+01	-2.451138e+01
4.903880381243800e-04	6.752956e-01	6.757064e-01	1.425083e+01	-2.508274e-01	1.399290e+01	-2.451090e+01
4.904280381243797e-04	6.752837e-01	6.756948e-01	1.425082e+01	-2.508168e-01	1.399291e+01	-2.450985e+01
4.905080381243793e-04	6.752608e-01	6.756716e-01	1.425080e+01	-2.507956e-01	1.399291e+01	-2.450778e+01
4.906680381243783e-04	6.752143e-01	6.756251e-01	1.425075e+01	-2.507532e-01	1.399293e+01	-2.450364e+01
4.909880381243764e-04	6.751215e-01	6.755321e-01	1.425067e+01	-2.506685e-01	1.399295e+01	-2.449536e+01
4.916280381243796e-04	6.749357e-01	6.753461e-01	1.425050e+01	-2.504990e-01	1.399300e+01	-2.447881e+01
4.929080381243789e-04	6.745647e-01	6.749746e-01	1.425016e+01	-2.501606e-01	1.399310e+01	-2.444576e+01
4.954680381243776e-04	6.738244e-01	6.742323e-01	1.424948e+01	-2.494847e-01	1.399330e+01	-2.437977e+01
4.954780381243792e-04	6.738210e-01	6.742294e-01	1.424948e+01	-2.494820e-01	1.399330e+01	-2.437949e+01
4.954980381243826e-04	6.738145e-01	6.742236e-01	1.424948e+01	-2.494767e-01	1.399330e+01	-2.437895e+01
4.955380381243824e-04	6.738033e-01	6.742121e-01	1.424947e+01	-2.494662e-01	1.399330e+01	-2.437793e+01
4.956180381243819e-04	6.737801e-01	6.741890e-01	1.424945e+01	-2.494451e-01	1.399331e+01	-2.437587e+01
4.957780381243809e-04	6.737340e-01	6.741427e-01	1.424940e+01	-2.494029e-01	1.399332e+01	-2.437175e+01
4.960980381243790e-04	6.736416e-01	6.740502e-01	1.424932e+01	-2.493186e-01	1.399335e+01	-2.436351e+01
4.967380381243822e-04	6.734568e-01	6.738652e-01	1.424915e+01	-2.491501e-01	1.399340e+01	-2.434706e+01
4.980180381243815e-04	6.730879e-01	6.734953e-01	1.424881e+01	-2.488134e-01	1.399350e+01	-2.431420e+01
